# MHz S RI R 50
568.0 0.4671973249996456 0.8925975610001012
568.6 0.468711678301357 0.8924682577035385
569.2 0.4702541404293674 0.8923155944789651
569.8 0.4718231571549633 0.892138017148588
570.4 0.47341709720776215 0.891934077191458
571.0 0.47503425914198444 0.891702435265442
571.6 0.4766728783427821 0.8914418643005043
572.2 0.4783311341468967 0.8911512521593241
572.8 0.4800071570519584 0.8908296038626637
573.4 0.48169903598885794 0.8904760433785506
574.0 0.48340482563179665 0.8900898149755171
574.6 0.4851225537208507 0.8896702841417682
575.2 0.48685022837215364 0.889216938073372
575.8 0.4885858453514601 0.8887293857361156
576.4 0.49032739528685304 0.888207357506677
577.0 0.4920728707973517 0.8876507044004772
577.6 0.493820273514551 0.8870593968944126
578.2 0.4955676209750089 0.8864335233541304
578.8 0.497312953362053 0.8857732880766038
579.4 0.49905434007623317 0.8850790089598465
580.0 0.5007898861145874 0.8843511148126841
580.6 0.5025177382397684 0.8835901423185671
581.2 0.504236090920969 0.8827967326682634
581.8 0.5059431920296098 0.8819716278772413
582.4 0.5076373482737162 0.8811156668044302
583.0 0.509316930356048 0.880229780889663
583.6 0.5109803778420616 0.8793149896280116
584.2 0.512626203724978 0.8783723957997616
584.8 0.5142529986763509 0.8774031804753709
585.4 0.5158594349717329 0.876408597815302
586.0 0.5174442700822143 0.8753899696850266
586.6 0.5190063499238837 0.8743486801059149
587.2 0.5205446117584381 0.8732861695629827
587.8 0.5220580867394802 0.8722039291907407
588.4 0.5235459021001935 0.8711034948585648
589.0 0.5250072829794775 0.8699864411769631
589.6 0.5264415538848072 0.8688543754464086
590.2 0.5278481397912183 0.8677089315700005
590.8 0.5292265668773144 0.8665517639514048
591.4 0.5305764629001642 0.8653845413991198
592.0 0.531897557212292 0.8642089410579677
592.6 0.533189680425117 0.8630266423883175
593.2 0.5344527637243326 0.8618393212131596
593.8 0.535686837843887 0.8606486438527252
594.4 0.5368920317062431 0.8594562613657577
595.0 0.5380685707377606 0.8582638039160028
595.6 0.5392167748689128 0.8570728752818213
596.2 0.5403370562301659 0.8558850475261459
596.8 0.541429916555158 0.8547018558432137
597.4 0.5424959443037493 0.8535247935977641
598.0 0.5435358115183191 0.8523553075714875
598.6 0.5445502704274388 0.8511947934306566
599.2 0.5455401498117578 0.850044591427943
599.8 0.5465063511476385 0.848905982350435
600.4 0.5474498445445076 0.8477801837248976
601.0 0.5483716644926863 0.8466683462902946
601.6 0.5492729054385975 0.8455715507465492
602.2 0.5501547172049196 0.8444908047873944
602.8 0.5510183002733837 0.8434270404242321
603.4 0.5518649009483302 0.8423811116066212
604.0 0.5526958064191789 0.8413537921441078
604.6 0.5535123397402602 0.8403457739328756
605.2 0.5543158547463783 0.8393576654896904
605.8 0.5551077309225431 0.8383899907944035
606.4 0.5558893682462341 0.8374431884413285
607.0 0.5566621820204045 0.8365176110986117
607.6 0.5574275977152783 0.835613525273721
608.2 0.5581870458366794 0.8347311113821356
608.8 0.5589419568383722 0.8338704641152946
609.4 0.5596937560955115 0.8330315931028452
610.0 0.5604438589558227 0.8322144238633717
610.6 0.561193665884746 0.8314187990367249
611.2 0.5619445577201463 0.8306444798903176
611.8 0.5626978910517104 0.8298911480908214
612.4 0.5634549937394425 0.8291584077319049
613.0 0.5642171605851085 0.8284457876079101
613.6 0.5649856491696633 0.82775274372268
614.2 0.5657616758690278 0.8270786620219436
614.8 0.566546412059847 0.8264228613372527
615.4 0.5673409805259713 0.8257845965286674
616.0 0.5681464520756142 0.8251630618130813
616.6 0.5689638423783633 0.8245573942644241
617.2 0.5697941090302271 0.823966677471706
617.8 0.5706381488541382 0.8233899453404351
618.4 0.5714967954423478 0.8228261860226306
619.0 0.5723708169463193 0.8222743459604605
619.6 0.5732609141187596 0.8217333340282733
620.2 0.5741677186115296 0.8212020257576811
620.8 0.5750917915322954 0.8206792676302483
621.4 0.5760336222618193 0.8201638814223325
622.0 0.5769936275329353 0.8196546685865803
622.6 0.5779721507713127 0.81915041465472
623.2 0.5789694616972821 0.8186498936463552
623.8 0.5799857561870724 0.8181518724686461
624.4 0.5810211563910043 0.8176551152919783
625.0 0.5820757111053417 0.8171583878870027
625.6 0.5831493963936486 0.816660461908671
626.2 0.5842421164528072 0.8161601191133071
626.8 0.5853537047179961 0.8156561554951162
627.4 0.5864839252002433 0.8151473853289214
628.0 0.5876324740494897 0.8146326451064628
628.6 0.5887989813353829 0.814110797354022
629.2 0.589983013037394 0.8135807343196978
629.8 0.591184073235292 0.8130413815192317
630.4 0.5924016064903923 0.8124917011298461
631.0 0.5936350004075042 0.811930695222222
631.6 0.5948835883669893 0.8113574088213223
632.2 0.5961466524159147 0.810770932787511
632.8 0.5974234263068617 0.810170406510042
633.4 0.5987130986725996 0.809555020405726
634.0 0.6000148163244869 0.8089240182162891
634.6 0.6013276876621911 0.8082766990987041
635.2 0.6026507861820873 0.8076124195034375
635.8 0.6039831540714622 0.8069305948364126
636.4 0.6053238058755644 0.8062307009011734
637.0 0.6066717322243298 0.8055122751184731
637.6 0.608025903605646 0.8047749175214048
638.2 0.6093852741719086 0.8040182915247411
638.8 0.6107487855667072 0.8032421244681366
639.4 0.6121153707584764 0.8024462079334014
640.0 0.6134839578680864 0.8016303978369372
640.6 0.6148534739774765 0.8007946142990857
641.2 0.6162228489066179 0.7999388412928727
641.8 0.6175910189462912 0.7990631260753718
642.4 0.6189569305344552 0.7981675784055524
643.0 0.620319543864257 0.7972523695532001
643.6 0.6216778364120585 0.7963177311040975
644.2 0.6230308063742398 0.795363953567345
644.8 0.6243774760019246 0.7943913847912417
645.4 0.6257168948231985 0.7934004281947771
646.0 0.6270481427428716 0.7923915408223408
646.6 0.6283703330103111 0.7913652312297108
647.2 0.6296826150463767 0.7903220572099877
647.8 0.6309841771210722 0.7892626233685132
648.4 0.6322742488740414 0.7881875785562813
649.0 0.6335521036706626 0.7870976131717394
649.6 0.6348170607870948 0.785993456341259
650.2 0.6360684874182215 0.7848758729888194
650.8 0.6373058005031377 0.7837456608058326
651.4 0.6385284683634199 0.782603647132175
652.0 0.6397360121501156 0.7814506857598118
652.6 0.6409280070960525 0.7802876536704887
653.2 0.6421040835707571 0.7791154477191552
653.8 0.6432639279359279 0.7779349812748312
654.4 0.6444072832001464 0.7767471808307392
655.0 0.6455339494721318 0.7755529825954824
655.6 0.6466437842125817 0.7743533290770596
656.2 0.6477367022853062 0.7731491656714482
656.8 0.648812675808996 0.7719414372673413
657.4 0.6498717338117184 0.7707310848785498
658.0 0.6509139616907621 0.7695190423153326
658.6 0.6519395004812253 0.7683062329057714
659.2 0.6529485459372517 0.7670935662779842
659.8 0.6539413474304906 0.7658819352137588
660.4 0.6549182066709294 0.764672212583808
661.0 0.6558794762557889 0.7634652483745304
661.6 0.6568255580527528 0.7622618668157775
662.2 0.6577569014242742 0.7610628636186858
662.8 0.6586740013002406 0.7598690033322311
663.4 0.6595773961066991 0.7586810168266918
664.0 0.6604676655587931 0.7574995989116518
664.6 0.6613454283264846 0.7563254060957888
665.2 0.6622113395819531 0.7551590544950197
665.8 0.6630660884379711 0.7540011178951125
666.4 0.6639103952867863 0.752852125974294
667.0 0.6647450090493685 0.751712562690747
667.6 0.6655707043450715 0.7505828648393634
668.2 0.6663882785919892 0.7494634207814652
668.8 0.6671985490484202 0.7483545693506081
669.4 0.668002349805993 0.7472565989369521
670.0 0.668800528745096 0.746169746752083
670.6 0.6695939444632976 0.7450941982755042
671.2 0.6703834631874508 0.7440300868834238
671.8 0.6711699556801848 0.742977493659835
672.4 0.6719542941513847 0.741936447389233
673.0 0.6727373491852051 0.7409069247297757
673.6 0.6735199866930195 0.7398888505649991
674.2 0.6743030649025243 0.7388820985316803
674.8 0.6750874313930829 0.73788649172084
675.4 0.6758739201870789 0.7369018035482793
676.0 0.676663348906871 0.7359277587905584
676.6 0.6774565160066062 0.7349640347817439
677.2 0.6782541980878368 0.7340102627657518
677.8 0.6790571473075472 0.7330660293986585
678.4 0.6798660888868338 0.7321308783948318
679.0 0.6806817187280623 0.7312043123103392
679.6 0.6815047011479215 0.7302857944566312
680.2 0.6823356667333635 0.7293747509371646
680.8 0.683175210326924 0.7284705727991873
681.4 0.6840238891474788 0.7275726182926628
682.0 0.6848822210519719 0.7266802152279228
682.6 0.6857506829431437 0.7257926634234237
683.2 0.6866297093277791 0.724909237234699
683.8 0.6875196910294433 0.7240291881554194
684.4 0.6884209740591424 0.7231517474812407
685.0 0.6893338586467996 0.7222761290270324
685.6 0.690258598435861 0.7214015318879137
686.2 0.6911953998428199 0.7205271432344431
686.8 0.6921444215828504 0.719652141132291
687.4 0.6931057743622143 0.7187756973766467
688.0 0.6940795207375215 0.7178969803316652
688.6 0.6950656751413729 0.7170151577652889
689.2 0.6960642040733905 0.7161293996698278
689.8 0.6970750264550406 0.7152388810588317
690.4 0.6980980141461928 0.7143427847308659
691.0 0.6991329926207608 0.7134403039910188
691.6 0.7001797417983167 0.7125306453211167
692.2 0.7012379970280328 0.711613030989858
692.8 0.7023074502208403 0.7106867015943494
693.4 0.7033877511252101 0.7097509185247355
694.0 0.7044785087415308 0.7088049663439929
694.6 0.7055792928696007 0.7078481550751932
695.2 0.7066896357833504 0.7068798223889752
695.8 0.7078090340265318 0.7058993356842425
696.4 0.7089369503227205 0.7049060940555604
697.0 0.7100728155926348 0.7038995301410852
697.6 0.711216031071464 0.702879111845313
698.2 0.7123659705186025 0.7018443439313309
698.8 0.7135219825118851 0.7007947694777883
699.4 0.714683392818215 0.699729971196152
700.0 0.715849506832229 0.6986495726044228
700.6 0.7170196120744682 0.6975532390538707
701.2 0.718192980740343 0.6964406786059103
701.8 0.719368872291077 0.6953116427567158
702.4 0.7205465360776776 0.6941659270077006
703.0 0.7217252139889312 0.6930033712804885
703.6 0.7229041431143384 0.6918238601755279
704.2 0.7240825584129502 0.6906273230740326
704.8 0.7252596953789986 0.689413734083429
705.4 0.7264347926953185 0.6881831118270216
706.0 0.7276070948655975 0.6869355190790952
706.6 0.7287758548165993 0.6856710622471891
707.2 0.7299403364616158 0.6843898907037453
707.8 0.7310998172165946 0.6830921959698997
708.4 0.7322535904605183 0.6817782107545547
709.0 0.7334009679318692 0.6804482078524572
709.6 0.7345412820532138 0.6791024989053814
710.2 0.7356738881762235 0.6777414330309968
710.8 0.7367981667397037 0.6763653953244168
711.4 0.7379135253335536 0.6749748052378366
712.0 0.7390194006618622 0.6735701148440618
712.6 0.7401152603987255 0.6721518069900978
713.2 0.741200604930738 0.6707203933473087
713.8 0.7422749689804983 0.6692764123650251
714.4 0.7433379231058647 0.6678204271347291
715.0 0.7443890750701481 0.6663530231722676
715.6 0.7454280710788477 0.6648748061257956
716.2 0.7464545968789976 0.6633863994173669
716.8 0.7474683787176496 0.6618884418263113
717.4 0.7484691841565054 0.66038158502271
718.0 0.7494568227401929 0.6588664910594307
718.6 0.7504311465161638 0.6573438298313072
719.2 0.7513920504047066 0.6558142765101466
719.8 0.7523394724180562 0.6542785089642993
720.4 0.753273393728099 0.6527372051715892
721.0 0.7541938385826664 0.6511910406343762
721.6 0.7551008740709365 0.64964068580553
722.2 0.7559946097389351 0.6480868035340279
722.8 0.7568751970566662 0.6465300465388143
723.4 0.7577428287388654 0.6449710549194465
724.0 0.758597737921864 0.6434104537119363
724.6 0.7594401971995445 0.6418488504979959
725.2 0.7602705175218124 0.6402868330757417
725.8 0.7610890469594889 0.6387249671996813
726.4 0.7618961693399386 0.6371637943975405
727.0 0.7626923027582225 0.635603829871274
727.6 0.7634778979689146 0.6340455604892486
728.2 0.7642534366641798 0.6324894428763317
728.8 0.7650194296440199 0.6309359016082257
729.4 0.7657764148850084 0.6293853275160852
730.0 0.7665249555141223 0.6278380761070359
730.6 0.7672656376946071 0.6262944661058414
731.2 0.7679990684311034 0.6247547781225341
731.8 0.7687258733015125 0.6232192534504377
732.4 0.7694466941233243 0.6216880929985064
733.0 0.7701621865623443 0.6201614563615078
733.6 0.7708730176919186 0.6186394610310832
734.2 0.7715798635109599 0.6171221817502496
734.8 0.7722834064291438 0.6156096500134238
735.4 0.7729843327278213 0.6141018537135742
736.0 0.7736833300051834 0.6125987369375766
736.6 0.7743810846143403 0.6111001999104089
737.2 0.7750782791029347 0.6096060990882668
737.8 0.7757755896629273 0.6081162474002179
738.4 0.7764736835991445 0.6066304146374981
739.0 0.7771732168251041 0.6051483279890966
739.6 0.7778748313945575 0.603669672721719
740.2 0.7785791530770287 0.6021940930018171
740.8 0.7792867889855271 0.600721192856849
741.4 0.7799983252643773 0.5992505372724806
742.0 0.7807143248449665 0.5977816534220041
742.6 0.7814353252769252 0.5963140320237871
743.2 0.7821618366420439 0.5948471288221588
743.8 0.7828943395579292 0.5933803661867216
744.4 0.7836332832781198 0.5919131348246699
745.0 0.784379083895043 0.5904447956003589
745.6 0.7851321226518699 0.5889746814559611
746.2 0.7858927443689553 0.587502099426755
746.8 0.7866612559901637 0.5860263327442362
747.4 0.7874379252540139 0.5845466430199846
748.0 0.7882229794941163 0.5830622725029141
748.6 0.7890166045729999 0.5815724464023129
749.2 0.7898189439529457 0.5800763752688376
749.8 0.7906300979070191 0.5785732574254425
750.4 0.7914501228730133 0.5770622814400429
751.0 0.7922790309525575 0.5755426286315659
751.6 0.7931167895571543 0.5740134756009265
752.2 0.7939633212024332 0.572473996778372
752.8 0.7948185034514124 0.5709233669785729
753.4 0.7956821690070837 0.5693607639547957
754.0 0.7965541059541009 0.5677853709434867
754.6 0.7974340581489219 0.5661963791906167
755.2 0.7983217257571955 0.5645929904511671
755.8 0.7992167659367417 0.5629744194532288
756.4 0.8001187936639634 0.5613398963182639
757.0 0.8010273827010594 0.5596886689292254
757.6 0.8019420667009313 0.558020005238363
758.2 0.8028623404462084 0.5563331955067449
758.8 0.8037876612183784 0.5546275544677055
759.4 0.8047174502925474 0.5529024234066731
760.0 0.8056510945529337 0.5511571721500862
760.6 0.8065879482237933 0.5493912009563785
761.2 0.8075273347100573 0.5476039423023082
761.8 0.808468548541588 0.5457948625582534
762.4 0.8094108574145982 0.543963463546403
763.0 0.8103535043234241 0.5421092839761813
763.6 0.8112957097755208 0.5402319007515768
764.2 0.8122366740822368 0.5383309301455043
764.8 0.8131755797176546 0.5364060288366942
765.4 0.8141115937375109 0.5344568948050835
766.0 0.8150438702499737 0.5324832680820965
766.6 0.8159715529298565 0.5304849313526966
767.2 0.8168937775676438 0.5284617104065384
767.8 0.8178096746445586 0.5264134744360626
768.4 0.8187183719247536 0.5243401361798506
769.0 0.8196189970556266 0.52224165191006
769.6 0.8205106801671403 0.520118021263297
770.2 0.8213925564610302 0.5179692869147645
770.8 0.8222637687807135 0.5157955340960537
771.4 0.8231234701527501 0.513596889957488
772.0 0.8239708262907283 0.5113735227764107
772.6 0.8248050180525197 0.5091256410133649
773.2 0.8256252438419329 0.5068534922186021
773.8 0.8264307219459254 0.5045573617918844
774.4 0.8272206927986877 0.5022375715990514
775.0 0.8279944211640737 0.49989447844930757
775.6 0.8287511982280859 0.49752847243769777
776.2 0.8294903435933303 0.4951399751577
776.8 0.8302112071676538 0.49272943778933026
777.4 0.8309131709394125 0.4902973390686365
778.0 0.8315956506321958 0.4878441831448512
778.6 0.8322580972321182 0.4853704973319345
779.2 0.8328999983811823 0.4828768297616224
779.8 0.8335208796305917 0.4803637469454874
780.4 0.8341203055483084 0.4778318312538718
781.0 0.8346978806755648 0.4752816783199162
781.6 0.8352532503275079 0.4727138943772013
782.2 0.8357861012336051 0.47012909353982524
782.8 0.8362961620139395 0.46752789503402725
783.4 0.8367832034880043 0.4649109203906669
784.0 0.8372470388131504 0.462278790608127
784.6 0.8376875234503373 0.45963212329537867
785.2 0.8381045549554019 0.4569715298050925
785.8 0.8384980725946016 0.45429761236683897
786.4 0.8388680567837402 0.45161096123048716
787.0 0.8392145283507555 0.448912151830006
787.6 0.8395375476222258 0.44620174197789425
788.2 0.8398372133347975 0.44348026910046623
788.8 0.8401136613731552 0.4407482475242217
789.4 0.8403670633366767 0.43800616582343477
790.0 0.8405976249375301 0.43525448423902324
790.6 0.840805584233522 0.4324936321786608
791.2 0.8409912096995582 0.4297240058078947
791.8 0.8411547981421555 0.42694596574188654
792.4 0.8412966724619698 0.424159834847168
793.0 0.8414171792698537 0.4213658961625527
793.6 0.8415166863624728 0.4185643909480645
794.2 0.8415955800640218 0.4157555168704748
794.8 0.8416542624410756 0.41293942633365394
795.4 0.8416931483980828 0.4101162249616255
796.0 0.8417126626614709 0.407285970241808
796.6 0.8417132366607687 0.4044486703355284
797.2 0.8416953053155568 0.40160428306242607
797.8 0.8416593037374744 0.39875271506494975
798.4 0.8416056638568464 0.39589382115863336
799.0 0.841534810983866 0.39302740387334895
799.6 0.8414471603145632 0.3901532131902071
800.2 0.8413431133920991 0.3872709464782535
800.8 0.8412230545341665 0.38438024863452286
801.4 0.8410873472375159 0.3814807124304654
802.0 0.8409363305708403 0.378571879067175
802.6 0.8407703155673938 0.375653238941241
803.2 0.8405895816288866 0.37272423262243976
803.8 0.8403943729522835 0.36978425204389276
804.4 0.8401848949912285 0.36683264190465775
805.0 0.8399613109638322 0.36386870128412163
805.6 0.8397237384185952 0.360891685466936
806.2 0.839472245870203 0.357900807976582
806.8 0.8392068495168623 0.35489524281504586
807.4 0.8389275100507728 0.35187412690544106
808.0 0.8386341295732059 0.34883656273380315
808.6 0.8383265486254782 0.34578162118564637
809.2 0.8380045433469583 0.3427083445722707
809.8 0.8376678227709929 0.33961574984120957
810.4 0.8373160262693986 0.3365028319645931
811.0 0.8369487211558728 0.3333685674986407
811.6 0.8365654004583897 0.3302119183069273
812.2 0.8361654808702497 0.32703183543950154
812.8 0.8357483008891381 0.32382726315940263
813.4 0.8353131191531015 0.3205971431076226
814.0 0.8348591129819424 0.3173404185970254
814.6 0.834385377132073 0.31405603902528906
815.2 0.8338909227723817 0.3107429643964742
815.8 0.8333746766881723 0.30740016994036223
816.4 0.832835480719696 0.304026650818336
817.0 0.8322720914412476 0.30062142690417754
817.6 0.8316831800862335 0.29718354762778737
818.2 0.8310673327230241 0.2937120968695273
818.8 0.8304230506857803 0.2902061978925629
819.4 0.8297487512638421 0.2866650183003495
820.0 0.8290427686526198 0.283087775006117
820.6 0.8283033551682374 0.2794737392010405
821.2 0.8275286827275825 0.2758222413076037
821.8 0.8267168445946596 0.27213267590449536
822.4 0.8258658573935066 0.26840450660929316
823.0 0.8249736633872303 0.2646372709051167
823.6 0.8240381330219915 0.2608305848973666
824.2 0.8230570677340905 0.25698414798667807
824.8 0.8220282030175845 0.25309774744426106
825.4 0.8209492117491517 0.24917126287582364
826.0 0.8198177077662067 0.245204670560411
826.6 0.818631249693592 0.24119804765062272
827.2 0.8173873450134055 0.23715157622082578
827.8 0.8160834543718984 0.23306554715020575
828.4 0.8147169961166238 0.22894036382773056
829.0 0.8132853510563806 0.22477654566640387
829.6 0.8117858674357893 0.22057473141445563
830.2 0.8102158661157097 0.21633568225150748
830.8 0.8085726459500394 0.2120602846581237
831.4 0.8068534893488252 0.20774955304755502
832.0 0.8050556680169911 0.20340463214895801
832.6 0.8031764488574167 0.19902679913185495
833.2 0.8012131000265091 0.19461746546209124
833.8 0.7991628971298791 0.19017817848011348
834.4 0.797023129545213 0.18571062269297975
835.0 0.7947911068589244 0.18121662077207623
835.6 0.7924641654027113 0.17669813424918915
836.2 0.7900396748757168 0.17215726390422947
836.8 0.787515045037561 0.1675962498385778
837.4 0.7848877324571557 0.1630174712287349
838.0 0.7821552473018855 0.15842344575572495
838.6 0.7793151601513976 0.15381682870637908
839.2 0.7763651088200154 0.149200411743486
839.8 0.7733028051715317 0.14457712134250694
840.4 0.7701260419099833 0.13995001689342976
