# MHz S RI R 50							
70      	0.0004	0
70.106589	0.0022	0
70.213178 	0.0041	0
70.319767	0.0044	0
70.426357	0.003	0
70.532946	0.0017	0
70.639535	0.0017	0
70.746124	0.002	0
70.852713	0.0013	0
70.959302	0.0013	0
71.065891	0.0034	0
71.172481	0.005	0
71.27907	0.0052	0
71.385659	0.0046	0
71.492248	0.0033	0
71.598837	0.0027	0
71.705426	0.0019	0
71.812016	0.0021	0
71.918605	0.0026	0
72.025194	0.0027	0
72.131783	0.0025	0
72.238372	0.0022	0
72.344961	0.0018	0
72.45155	0.0016	0
72.55814	0.0015	0
72.664729	0.0022	0
72.771318	0.0028	0
72.877907	0.0025	0
72.984496	0.0013	0
73.091085	0.001	0
73.197674	0.002	0
73.304264	0.0026	0
73.410853	0.0021	0
73.517442	0.0015	0
73.624031	0.0011	0
73.73062	0.0011	0
73.837209	0.0014	0
73.943798	0.0019	0
74.050388	0.0025	0
74.156977	0.0025	0
74.263566	0.002	0
74.370155	0.0012	0
74.476744	0.0012	0
74.583333	0.0015	0
74.689922	0.0016	0
74.796512	0.0016	0
74.903101	0.0011	0
75.00969	0.0012	0
75.116279	0.0011	0
75.222868	0.0011	0
75.329457	0.0012	0
75.436047	0.0017	0
75.542636	0.0019	0
75.649225	0.0022	0
75.755814	0.0018	0
75.862403	0.0015	0
75.968992	0.0011	0
76.075581	0.0007	0
76.182171	0.0008	0
76.28876	0.0011	0
76.395349	0.0018	0
76.501938	0.0021	0
76.608527	0.002	0
76.715116	0.0017	0
76.821705	0.0012	0
76.928295	0.0006	0
77.034884	0.0006	0
77.141473	0.001	0
77.248062	0.0013	0
77.354651	0.0014	0
77.46124	0.0014	0
77.567829	0.0012	0
77.674419	0.0011	0
77.781008	0.0006	0
77.887597	0.0006	0
77.994186	0.0009	0
78.100775	0.0013	0
78.207364	0.0016	0
78.313953	0.0016	0
78.420543	0.0015	0
78.527132	0.0009	0
78.633721	0.0006	0
78.74031	0.0008	0
78.846899	0.0013	0
78.953488	0.002	0
79.060078	0.0025	0
79.166667	0.0022	0
79.273256	0.0018	0
79.379845	0.0007	0
79.486434	0.0003	0
79.593023	0.0007	0
79.699612	0.0009	0
79.806202	0.0013	0
79.912791	0.0015	0
80.01938	0.0018	0
80.125969	0.0015	0
80.232558	0.0012	0
80.339147	0.0008	0
80.445736	0.0011	0
80.552326	0.0012	0
80.658915	0.0015	0
80.765504	0.0018	0
80.872093	0.0019	0
80.978682	0.0019	0
81.085271	0.0014	0
81.19186	0.0009	0
81.29845	0.0011	0
81.405039	0.0019	0
81.511628	0.0022	0
81.618217	0.0023	0
81.724806	0.0018	0
81.831395	0.0015	0
81.937984	0.0011	0
82.044574	0.0007	0
82.151163	0.0013	0
82.257752	0.0024	0
82.364341	0.0028	0
82.47093	0.0026	0
82.577519	0.0018	0
82.684109	0.001	0
82.790698	0	0
82.897287	0.0008	0
83.003876	0.0018	0
83.110465	0.0027	0
83.217054	0.0029	0
83.323643	0.0025	0
83.430233	0.0017	0
83.536822	0.001	0
83.643411	0.0005	0
83.75		0.0008	0
83.856589	0.001	0
83.963178	0.0013	0
84.069767	0.0016	0
84.176357	0.0016	0
84.282946	0.0015	0
84.389535	0.0013	0
84.496124	0.001	0
84.602713	0.0014	0
84.709302	0.0017	0
84.815891	0.002	0
84.922481	0.002	0
85.02907	0.002	0
85.135659	0.0018	0
85.242248	0.0012	0
85.348837	0.0008	0
85.455426	0.0015	0
85.562016	0.0027	0
85.668605	0.0031	0
85.775194	0.0031	0
85.881783	0.0026	0
85.988372	0.0016	0
86.094961	0.0009	0
86.20155	0.0006	0
86.30814	0.0007	0
86.414729	0.001	0
86.521318	0.0017	0
86.627907	0.0021	0
86.734496	0.0022	0
86.841085	0.002	0
86.947674	0.0015	0
87.054264	0.0013	0
87.160853	0.0021	0
87.267442	0.0028	0
87.374031	0.0034	0
87.48062	0.0031	0
87.587209	0.0026	0
87.693798	0.0017	0
87.800388	0.001	0
87.906977	0.0006	0
88.013566	0.001	0
88.120155	0.0018	0
88.226744	0.003	0
88.333333	0.0029	0
88.439922	0.0025	0
88.546512	0.0015	0
88.653101	0.0004	0
88.75969	0.0007	0
88.866279	0.0019	0
88.972868	0.0026	0
89.079457	0.0029	0
89.186047	0.0028	0
89.292636	0.002	0
89.399225	0.0011	0
89.505814	0.0009	0
89.612403	0.0011	0
89.718992	0.0015	0
89.825581	0.0022	0
89.932171	0.0029	0
90.03876	0.0028	0
90.145349	0.0025	0
90.251938	0.0019	0
90.358527	0.0012	0
90.465116	0.0018	0
90.571705	0.0027	0
90.678295	0.0031	0
90.784884	0.0029	0
90.891473	0.0024	0
90.998062	0.0017	0
91.104651	0.0011	0
91.21124	0.0009	0
91.317829	0.0009	0
91.424419	0.0016	0
91.531008	0.0022	0
91.637597	0.0028	0
91.744186	0.0027	0
91.850775	0.0024	0
91.957364	0.0016	0
92.063953	0.0006	0
92.170543	0.0009	0
92.277132	0.0016	0
92.383721	0.0022	0
92.49031	0.002	0
92.596899	0.0017	0
92.703488	0.0011	0
92.810078	0.0008	0
92.916667	0.0006	0
93.023256	0.0014	0
93.129845	0.002	0
93.236434	0.0025	0
93.343023	0.0026	0
93.449612	0.0022	0
93.556202	0.0015	0
93.662791	0.0008	0
93.76938	0.0004	0
93.875969	0.0014	0
93.982558	0.0023	0
94.089147	0.0029	0
94.195736	0.0028	0
94.302326	0.0027	0
94.408915	0.0015	0
94.515504	0.0009	0
94.622093	0.0008	0
94.728682	0.0011	0
94.835271	0.0016	0
94.94186	0.002	0
95.04845	0.002	0
95.155039	0.0017	0
95.261628	0.0014	0
95.368217	0.0011	0
95.474806	0.0009	0
95.581395	0.0009	0
95.687984	0.0009	0
95.794574	0.0017	0
95.901163	0.0023	0
96.007752	0.0025	0
96.114341	0.0021	0
96.22093	0.0013	0
96.327519	0.0014	0
96.434109	0.0028	0
96.540698	0.0038	0
96.647287	0.0039	0
96.753876	0.0031	0
96.860465	0.002	0
96.967054	0.0012	0
97.073643	0.0007	0
97.180233	0.001	0
97.286822	0.0021	0
97.393411	0.0035	0
97.5		0.0041	0
97.606589	0.004	0
97.713178	0.0029	0
97.819767	0.0014	0
97.926357	0.0007	0
98.032946	0.0023	0
98.139535	0.0029	0
98.246124	0.0029	0
98.352713	0.0025	0
98.459302	0.0021	0
98.565891	0.002	0
98.672481	0.0018	0
98.77907	0.0019	0
98.885659	0.0021	0
98.992248	0.0024	0
99.098837	0.003	0
99.205426	0.003	0
99.312016	0.0023	0
99.418605	0.0014	0
99.525194	0.0005	0
99.631783	0	0
99.738372	0.0009	0
99.844961	0.0018	0
99.95155	0.0029	0
100.05814	0.0034	0
100.164729	0.0031	0
100.271318	0.0021	0
100.377907	0.001	0
100.484496	0.0016	0
100.591085	0.0022	0
100.697674	0.0024	0
100.804264	0.0026	0
100.910853	0.0019	0
101.017442	0.0014	0
101.124031	0.001	0
101.23062	0.0007	0
101.337209	0	0
101.443798	0.0007	0
101.550388	0.0016	0
101.656977	0.0028	0
101.763566	0.0029	0
101.870155	0.0031	0
101.976744	0.0024	0
102.083333	0.0012	0
102.189922	0.001	0
102.296512	0.0025	0
102.403101	0.0035	0
102.50969	0.0041	0
102.616279	0.0038	0
102.722868	0.0026	0
102.829457	0.001	0
102.936047	0.0005	0
103.042636	0.001	0
103.149225	0.0019	0
103.255814	0.0026	0
103.362403	0.0036	0
103.468992	0.0038	0
103.575581	0.0031	0
103.682171	0.0017	0
103.78876	0.0013	0
103.895349	0.0026	0
104.001938	0.0036	0
104.108527	0.0038	0
104.215116	0.0035	0
104.321705	0.0029	0
104.428295	0.0019	0
104.534884	0.0013	0
104.641473	0.0011	0
104.748062	0.0011	0
104.854651	0.0014	0
104.96124	0.0028	0
105.067829	0.0033	0
105.174419	0.0041	0
105.281008	0.0034	0
105.387597	0.0019	0
105.494186	0.0013	0
105.600775	0.0021	0
105.707364	0.0028	0
105.813953	0.0021	0
105.920543	0.0008	0
106.027132	0.0016	0
106.133721	0.0033	0
106.24031	0.0039	0
106.346899	0.003	0
106.453488	0.0018	0
106.560078	0.0005	0
106.666667	0	0
106.773256	0.0011	0
106.879845	0.0024	0
106.986434	0.0034	0
107.093023	0.0038	0
107.199612	0.0039	0
107.306202	0.004	0
107.412791	0.0034	0
107.51938	0.0026	0
107.625969	0.002	0
107.732558	0.0025	0
107.839147	0.0026	0
107.945736	0.0018	0
108.052326	0.0008	0
108.158915	0.0008	0
108.265504	0.0014	0
108.372093	0.0027	0
108.478682	0.0039	0
108.585271	0.0041	0
108.69186	0.0029	0
108.79845	0.0018	0
108.905039	0.0031	0
109.011628	0.0041	0
109.118217	0.0029	0
109.224806	0	0
109.331395	0.0023	0
109.437984	0.0037	0
109.544574	0.0039	0
109.651163	0.0042	0
109.757752	0.0054	0
109.864341	0.0062	0
109.97093	0.0055	0
110.077519	0.005	0
110.184109	0.0052	0
110.290698	0.005	0
110.397287	0.0051	0
110.503876	0.006	0
110.610465	0.006	0
110.717054	0.0053	0
110.823643	0.0025	0
110.930233	0.0017	0
111.036822	0.0031	0
111.143411	0.0029	0
111.25		0.0013	0
111.356589	0.0017	0
111.463178	0.0036	0
111.569767	0.0041	0
111.676357	0.0038	0
111.782946	0.0028	0
111.889535	0.0021	0
111.996124	0.001	0
112.102713	0.0006	0
112.209302	0.001	0
112.315891	0.0012	0
112.422481	0.0023	0
112.52907	0.004	0
112.635659	0.0046	0
112.742248	0.0042	0
112.848837	0.0031	0
112.955426	0.0028	0
113.062016	0.0025	0
113.168605	0.0017	0
113.275194	0.001	0
113.381783	0.002	0
113.488372	0.004	0
113.594961	0.0064	0
113.70155	0.0077	0
113.80814	0.0072	0
113.914729	0.0061	0
114.021318	0.0078	0
114.127907	0.01	0
114.234496	0.0094	0
114.341085	0.0069	0
114.447674	0.0049	0
114.554264	0.0046	0
114.660853	0.0032	0
114.767442	0.0034	0
114.874031	0.0077	0
114.98062	0.0099	0
115.087209	0.0076	0
115.193798	0.0025	0
115.300388	0.0033	0
115.406977	0.0056	0
115.513566	0.0036	0
115.620155	0.0013	0
115.726744	0.0045	0
115.833333	0.0041	0
115.939922	0.0024	0
116.046512	0.0105	0
116.153101	0.0153	0
116.25969	0.012	0
116.366279	0.0022	0
116.472868	0.0203	0
116.579457	0.0386	0
116.686047	0.048	0
116.792636	0.0457	0
116.899225	0.0338	0
117.005814	0.0211	0
117.112403	0.0169	0
117.218992	0.0165	0
117.325581	0.0105	0
117.432171	0.0016	0
117.53876	0.0069	0
117.645349	0.0099	0
117.751938	0.0067	0
117.858527	0.0023	0
117.965116	0.0047	0
118.071705	0.0054	0
118.178295	0.0025	0
118.284884	0.0016	0
118.391473	0.0045	0
118.498062	0.0043	0
118.604651	0.0011	0
118.71124	0.0021	0
118.817829	0.0043	0
118.924419	0.0035	0
119.031008	0.0023	0
119.137597	0.003	0
119.244186	0.0021	0
119.350775	0.0009	0
119.457364	0.0044	0
119.563953	0.0061	0
119.670543	0.005	0
119.777132	0.0036	0
119.883721	0.0055	0
119.99031	0.0071	0
120.096899	0.0066	0
120.203488	0.004	0
120.310078	0.0032	0
120.416667	0.0045	0
120.523256	0.0042	0
120.629845	0.0019	0
120.736434	0	0
120.843023	0.0012	0
120.949612	0.0007	0
121.056202	0.0014	0
121.162791	0.0031	0
121.26938	0.003	0
121.375969	0.002	0
121.482558	0.001	0
121.589147	0.0025	0
121.695736	0.0025	0
121.802326	0.0018	0
121.908915	0	0
122.015504	0.001	0
122.122093	0.001	0
122.228682	0.0012	0
122.335271	0.0014	0
122.44186	0.0012	0
122.54845	0	0
122.655039	0	0
122.761628	0.0012	0
122.868217	0.0019	0
122.974806	0.0016	0
123.081395	0.0014	0
123.187984	0.0014	0
123.294574	0.0026	0
123.401163	0.0037	0
123.507752	0.0037	0
123.614341	0.0031	0
123.72093	0.0038	0
123.827519	0.0049	0
123.934109	0.0044	0
124.040698	0.0038	0
124.147287	0.004	0
124.253876	0.0043	0
124.360465	0.0043	0
124.467054	0.0031	0
124.573643	0.0029	0
124.680233	0.0032	0
124.786822	0.0034	0
124.893411	0.0026	0
125		0.0012	0
